COMTRADE file written by PSS®NETOMAC,1,1998
006,006A,000D
1,SS6|U - L1|,,8,kV,0.0026588687,-87.1212692261,0.0000000000,0,065535,1.0,1.0,S
2,SS6|U - L2|,,8,kV,0.0026670373,-87.3914871216,0.0000000000,0,065535,1.0,1.0,S
3,SS6|U - L3|,,8,kV,0.0026461082,-86.7061157227,0.0000000000,0,065535,1.0,1.0,S
4,L67|I - SS6 - L1,,,,0.0001161099,-4.1768126488,0.0000000000,0,065535,1.0,1.0,S
5,L67|I - SS6 - L2,,,,0.0001359994,-3.4351117611,0.0000000000,0,065535,1.0,1.0,S
6,L67|I - SS6 - L3,,,,0.0001286174,-4.9785084724,0.0000000000,0,065535,1.0,1.0,S
50.0
3
1000.0000,202
2000.0000,203
1000.0000,1001
07/26/2016,15:49:36.130001
07/26/2016,15:49:36.130001
ASCII
1.000000
0000000001,0000000000,065535,014158,018596,039629,023357,037416
0000000002,0000001000,064759,023353,010107,039593,024220,036536
0000000003,0000002000,060877,033499,003782,039206,025186,035864
0000000004,0000003000,054198,043610,000302,038498,026164,035469
0000000005,0000004000,045460,052621,000000,037546,027050,035392
0000000006,0000005000,035465,059713,002896,036440,027761,035639
0000000007,0000006000,025199,064164,008725,035286,028228,036187
0000000008,0000007000,015696,065528,016899,034202,028402,036981
0000000009,0000008000,007836,063708,026631,033289,028271,037944
0000000010,0000009000,002440,058836,036963,032640,027843,038982
0000000011,0000010000,000000,051429,046881,032317,027163,039993
0000000012,0000011000,000769,042188,055422,032351,026296,040878
0000000013,0000012000,004676,032023,061741,032741,025327,041551
0000000014,0000013000,011322,021940,065227,033446,024352,041946
0000000015,0000014000,020079,012904,065535,034399,023465,042023
0000000016,0000015000,030067,005824,062634,035506,022754,041776
0000000017,0000016000,040327,001373,056811,036658,022288,041229
0000000018,0000017000,049844,000000,048633,037744,022112,040435
0000000019,0000018000,057688,001833,038903,038655,022244,039472
0000000020,0000019000,063096,006692,028572,039305,022671,038434
0000000021,0000020000,065530,014107,018652,039628,023352,037423
0000000022,0000021000,064762,023345,010113,039593,024219,036537
0000000023,0000022000,060858,033509,003792,039204,025187,035864
0000000024,0000023000,054206,043597,000307,038499,026163,035470
0000000025,0000024000,045455,052626,000000,037546,027050,035392
0000000026,0000025000,035462,059712,002900,036439,027761,035639
0000000027,0000026000,025206,064158,008723,035287,028227,036187
0000000028,0000027000,015687,065535,016901,034201,028403,036981
0000000029,0000028000,007844,063700,026631,033289,028271,037944
0000000030,0000029000,002437,058841,036962,032640,027843,038982
0000000031,0000030000,000001,051427,046882,032317,027163,039993
0000000032,0000031000,000771,042188,055421,032352,026296,040878
0000000033,0000032000,004673,032026,061742,032741,025327,041551
0000000034,0000033000,011326,021936,065226,033446,024352,041946
0000000035,0000034000,020075,012908,065534,034399,023465,042023
0000000036,0000035000,030070,005822,062634,035506,022754,041776
0000000037,0000036000,040325,001375,056810,036658,022288,041229
0000000038,0000037000,049843,000000,048633,037744,022112,040435
0000000039,0000038000,057688,001833,038903,038656,022244,039472
0000000040,0000039000,063094,006693,028572,039305,022672,038434
0000000041,0000040000,065531,014106,018652,039628,023352,037423
0000000042,0000041000,064760,023347,010113,039593,024219,036537
0000000043,0000042000,060859,033507,003792,039204,025187,035864
0000000044,0000043000,054205,043598,000307,038499,026163,035470
0000000045,0000044000,045456,052625,000000,037546,027050,035392
0000000046,0000045000,035462,059712,002900,036439,027761,035639
0000000047,0000046000,025206,064158,008724,035287,028227,036187
0000000048,0000047000,015689,065533,016900,034201,028403,036981
0000000049,0000048000,007843,063701,026631,033289,028271,037944
0000000050,0000049000,002438,058840,036962,032640,027843,038982
0000000051,0000050000,000000,051428,046882,032317,027163,039993
0000000052,0000051000,000772,042187,055420,032352,026296,040878
0000000053,0000052000,004673,032027,061741,032741,025327,041551
0000000054,0000053000,011326,021936,065226,033446,024352,041946
0000000055,0000054000,020076,012908,065534,034399,023465,042023
0000000056,0000055000,030069,005823,062634,035506,022754,041776
0000000057,0000056000,040326,001375,056810,036658,022288,041229
0000000058,0000057000,049842,000001,048633,037744,022112,040435
0000000059,0000058000,057688,001832,038903,038656,022244,039472
0000000060,0000059000,063093,006694,028572,039305,022672,038434
0000000061,0000060000,065531,014105,018652,039628,023352,037423
0000000062,0000061000,064760,023346,010114,039593,024219,036537
0000000063,0000062000,060859,033507,003793,039204,025187,035864
0000000064,0000063000,054206,043597,000308,038499,026163,035470
0000000065,0000064000,045456,052625,000000,037546,027050,035392
0000000066,0000065000,035463,059711,002900,036439,027761,035639
0000000067,0000066000,025206,064159,008723,035287,028227,036187
0000000068,0000067000,015689,065533,016900,034201,028403,036981
0000000069,0000068000,007843,063701,026630,033289,028271,037944
0000000070,0000069000,002439,058840,036961,032640,027843,038982
0000000071,0000070000,000001,051428,046881,032317,027163,039993
0000000072,0000071000,000772,042187,055420,032352,026296,040878
0000000073,0000072000,004673,032027,061741,032741,025327,041551
0000000074,0000073000,011326,021937,065226,033446,024352,041946
0000000075,0000074000,020076,012908,065533,034399,023465,042023
0000000076,0000075000,030069,005823,062634,035506,022754,041776
0000000077,0000076000,040326,001375,056810,036658,022288,041229
0000000078,0000077000,049842,000001,048633,037743,022112,040435
0000000079,0000078000,057688,001833,038903,038655,022244,039472
0000000080,0000079000,063093,006694,028573,039305,022672,038434
0000000081,0000080000,065531,014106,018652,039628,023352,037423
0000000082,0000081000,064760,023346,010114,039593,024219,036537
0000000083,0000082000,060859,033507,003793,039204,025187,035864
0000000084,0000083000,054206,043597,000308,038499,026163,035470
0000000085,0000084000,045456,052625,000000,037546,027050,035392
0000000086,0000085000,035463,059711,002900,036439,027761,035639
0000000087,0000086000,025206,064158,008723,035287,028227,036187
0000000088,0000087000,015689,065533,016900,034201,028403,036981
0000000089,0000088000,007844,063701,026630,033290,028271,037944
0000000090,0000089000,002439,058840,036961,032640,027843,038982
0000000091,0000090000,000001,051428,046881,032317,027163,039993
0000000092,0000091000,000772,042188,055420,032352,026296,040878
0000000093,0000092000,004673,032027,061741,032741,025328,041551
0000000094,0000093000,011326,021937,065226,033446,024352,041946
0000000095,0000094000,020076,012909,065533,034399,023465,042023
0000000096,0000095000,030069,005823,062634,035506,022754,041776
0000000097,0000096000,040325,001376,056810,036658,022288,041229
0000000098,0000097000,049842,000001,048634,037743,022112,040435
0000000099,0000098000,057687,001833,038904,038655,022244,039472
0000000100,0000099000,063093,006693,028573,039305,022672,038434
0000000101,0000100000,065530,014106,018653,039628,023352,037423
0000000102,0000101000,064760,023346,010114,039593,024219,036537
0000000103,0000102000,060858,033507,003793,039204,025187,035864
0000000104,0000103000,054206,043596,000308,038499,026163,035470
0000000105,0000104000,045456,052625,000000,037546,027050,035392
0000000106,0000105000,035463,059710,002900,036439,027761,035639
0000000107,0000106000,025207,064158,008723,035287,028227,036187
0000000108,0000107000,015689,065533,016900,034202,028403,036981
0000000109,0000108000,007844,063700,026630,033290,028271,037944
0000000110,0000109000,002439,058840,036961,032640,027843,038982
0000000111,0000110000,000001,051428,046881,032317,027163,039993
0000000112,0000111000,000772,042188,055419,032352,026296,040878
0000000113,0000112000,004673,032027,061740,032741,025328,041551
0000000114,0000113000,011325,021938,065226,033446,024352,041946
0000000115,0000114000,020075,012909,065533,034399,023465,042023
0000000116,0000115000,030069,005823,062634,035506,022754,041776
0000000117,0000116000,040325,001376,056810,036658,022288,041229
0000000118,0000117000,049842,000001,048634,037743,022112,040435
0000000119,0000118000,057687,001833,038904,038655,022244,039472
0000000120,0000119000,063093,006693,028573,039305,022672,038434
0000000121,0000120000,065530,014106,018653,039628,023352,037423
0000000122,0000121000,064760,023345,010115,039593,024219,036537
0000000123,0000122000,060858,033506,003793,039204,025187,035865
0000000124,0000123000,054206,043596,000308,038499,026163,035470
0000000125,0000124000,045456,052624,000001,037546,027049,035392
0000000126,0000125000,035463,059710,002900,036439,027761,035639
0000000127,0000126000,025207,064157,008723,035287,028227,036186
0000000128,0000127000,015690,065533,016900,034202,028403,036981
0000000129,0000128000,007845,063701,026630,033290,028271,037944
0000000130,0000129000,002439,058840,036960,032640,027843,038982
0000000131,0000130000,000001,051428,046880,032317,027163,039993
0000000132,0000131000,000772,042188,055419,032352,026296,040878
0000000133,0000132000,004673,032028,061740,032741,025328,041551
0000000134,0000133000,011325,021938,065225,033446,024352,041946
0000000135,0000134000,020075,012910,065533,034399,023465,042023
0000000136,0000135000,030068,005824,062634,035506,022754,041776
0000000137,0000136000,040325,001376,056811,036658,022288,041229
0000000138,0000137000,049842,000001,048634,037743,022112,040435
0000000139,0000138000,057687,001833,038904,038655,022244,039472
0000000140,0000139000,063092,006693,028574,039305,022672,038434
0000000141,0000140000,065530,014105,018653,039628,023352,037423
0000000142,0000141000,064760,023345,010115,039593,024219,036537
0000000143,0000142000,060859,033506,003794,039204,025187,035865
0000000144,0000143000,054206,043596,000309,038499,026163,035470
0000000145,0000144000,045457,052624,000001,037546,027049,035392
0000000146,0000145000,035463,059710,002900,036439,027761,035639
0000000147,0000146000,025207,064157,008723,035287,028227,036186
0000000148,0000147000,015690,065533,016900,034202,028403,036981
0000000149,0000148000,007845,063701,026630,033290,028271,037944
0000000150,0000149000,002439,058840,036960,032640,027843,038982
0000000151,0000150000,000002,051428,046880,032317,027163,039993
0000000152,0000151000,000772,042189,055419,032352,026296,040878
0000000153,0000152000,004673,032028,061740,032741,025328,041551
0000000154,0000153000,011325,021938,065225,033446,024352,041945
0000000155,0000154000,020075,012910,065533,034399,023465,042023
0000000156,0000155000,030068,005824,062634,035506,022754,041776
0000000157,0000156000,040324,001376,056811,036658,022288,041229
0000000158,0000157000,049841,000001,048634,037743,022112,040435
0000000159,0000158000,057687,001833,038904,038655,022244,039472
0000000160,0000159000,063092,006693,028574,039305,022672,038434
0000000161,0000160000,065530,014106,018654,039628,023352,037423
0000000162,0000161000,064760,023345,010115,039593,024219,036537
0000000163,0000162000,060858,033506,003794,039204,025187,035865
0000000164,0000163000,054207,043595,000309,038499,026163,035470
0000000165,0000164000,045457,052624,000001,037546,027049,035392
0000000166,0000165000,035464,059710,002900,036439,027761,035639
0000000167,0000166000,025207,064157,008723,035287,028227,036186
0000000168,0000167000,015690,065533,016899,034202,028403,036981
0000000169,0000168000,007845,063700,026629,033290,028270,037944
0000000170,0000169000,002439,058841,036960,032640,027843,038982
0000000171,0000170000,000002,051428,046880,032317,027163,039993
0000000172,0000171000,000772,042189,055418,032352,026296,040878
0000000173,0000172000,004673,032028,061740,032741,025328,041551
0000000174,0000173000,011325,021939,065225,033446,024352,041945
0000000175,0000174000,020075,012910,065533,034399,023465,042023
0000000176,0000175000,030068,005824,062634,035506,022754,041776
0000000177,0000176000,040324,001377,056811,036658,022288,041229
0000000178,0000177000,049841,000001,048634,037743,022112,040435
0000000179,0000178000,057686,001833,038905,038655,022244,039472
0000000180,0000179000,063092,006693,028574,039305,022672,038434
0000000181,0000180000,065529,014106,018654,039628,023352,037423
0000000182,0000181000,064760,023344,010115,039593,024219,036537
0000000183,0000182000,060858,033506,003794,039204,025187,035865
0000000184,0000183000,054207,043595,000309,038499,026163,035470
0000000185,0000184000,045457,052623,000001,037546,027049,035392
0000000186,0000185000,035464,059709,002900,036439,027761,035639
0000000187,0000186000,025208,064157,008723,035287,028227,036186
0000000188,0000187000,015691,065533,016899,034202,028403,036981
0000000189,0000188000,007846,063700,026629,033290,028270,037944
0000000190,0000189000,002439,058841,036959,032640,027843,038982
0000000191,0000190000,000002,051428,046879,032317,027163,039993
0000000192,0000191000,000772,042189,055418,032352,026296,040878
0000000193,0000192000,004673,032028,061739,032741,025328,041551
0000000194,0000193000,011325,021939,065225,033446,024352,041945
0000000195,0000194000,020075,012910,065533,034399,023465,042023
0000000196,0000195000,030068,005824,062634,035506,022754,041776
0000000197,0000196000,040323,001377,056811,036658,022288,041229
0000000198,0000197000,049841,000001,048634,037743,022112,040435
0000000199,0000198000,057686,001833,038905,038655,022244,039472
0000000200,0000199000,063092,006693,028574,039305,022672,038434
0000000201,0000200000,065529,014105,018654,039628,023352,037423
0000000202,0000201000,064760,023344,010116,039593,024219,036537
0000000203,0000201500,039820,032277,026172,044659,023957,032242
0000000204,0000202500,035765,035165,027337,051582,025253,024620
0000000205,0000203500,037742,035942,024566,056150,028854,016689
0000000206,0000204500,032004,038704,027548,057741,034367,009423
0000000207,0000205500,033035,038700,026516,055487,041245,004185
0000000208,0000206500,029065,039860,029337,051396,048249,000473
0000000209,0000207500,028216,039320,030733,043876,055117,000000
0000000210,0000208500,027089,038512,032681,035648,060515,001720
0000000211,0000209500,025798,037321,035178,026147,064225,006373
0000000212,0000210500,026494,035298,036518,017120,065534,013138
0000000213,0000211500,026713,033437,038173,009393,064283,021437
0000000214,0000212500,027779,031378,039178,003382,060591,030767
0000000215,0000213500,030233,029283,038823,000393,054572,039830
0000000216,0000214500,030796,028147,039402,000000,046954,048241
0000000217,0000215500,034744,026546,037049,002939,038231,054811
0000000218,0000216500,034470,026799,037070,008437,029348,059240
0000000219,0000217500,038531,026257,033535,016283,021021,060961
0000000220,0000218500,037285,027854,033178,025596,014054,059922
0000000221,0000219500,040276,028455,029566,035463,009065,056290
0000000222,0000220500,038080,030912,029297,045072,006455,050374
0000000223,0000221500,039393,032253,026625,053291,006478,042930
0000000224,0000222500,036564,034795,026906,059615,009008,034546
0000000225,0000223500,036217,036200,025839,063145,013831,026259
0000000226,0000224500,033348,038013,026894,063859,020349,018723
0000000227,0000225500,031956,038794,027506,061461,027957,012843
0000000228,0000226500,029647,039340,029275,056346,035827,009140
0000000229,0000227500,028258,039037,030978,049043,043161,007977
0000000230,0000228500,026864,038270,033151,040093,049250,009618
0000000231,0000229500,026531,036829,034938,030765,053376,013677
0000000232,0000230500,026115,035194,037003,021462,055241,020103
0000000233,0000231500,027353,033039,037931,013731,054474,027893
0000000234,0000232500,027812,031258,039265,007710,051301,036684
0000000235,0000233500,030267,029168,038904,004568,045856,045278
0000000236,0000234500,031433,027931,038980,004185,038784,053101
0000000237,0000235500,034037,026740,037564,006865,030682,059249
0000000238,0000236500,035652,026460,036223,012267,022363,063168
0000000239,0000237500,037180,026690,034456,019787,014641,064545
0000000240,0000238500,038847,027397,032068,028869,008211,063145
0000000241,0000239500,038526,029014,030761,038411,003746,059253
0000000242,0000240500,039768,030379,028138,047663,001610,053158
0000000243,0000241500,037599,032802,027875,055639,002029,045516
0000000244,0000242500,038067,034263,025932,061520,004946,037122
0000000245,0000243500,034737,036607,026915,064925,010018,028684
0000000246,0000244500,034456,037547,026250,065217,016814,021235
0000000247,0000245500,030961,039000,028298,062773,024551,015260
0000000248,0000246500,030407,038951,028903,057406,032576,011620
0000000249,0000247500,027620,039096,031558,050062,039979,010422
0000000250,0000248500,027553,037910,032821,041125,046122,011993
0000000251,0000249500,025929,036879,035491,031705,050327,016052
0000000252,0000250500,027026,034807,036479,022640,052205,022249
0000000253,0000251500,026525,033205,038596,014778,051571,030017
0000000254,0000252500,029014,030835,038484,009059,048444,038486
0000000255,0000253500,029211,029475,039657,005794,043191,046988
0000000256,0000254500,032704,027534,038103,005604,036246,054504
0000000257,0000255500,033005,027102,038237,008202,028369,060488
0000000258,0000256500,036627,026182,035524,013605,020253,064192
0000000259,0000257500,036495,026976,034856,021068,012753,065385
0000000260,0000258500,039245,027303,031764,029998,006557,063875
0000000261,0000259500,038369,029131,030801,039453,002289,059852
0000000262,0000260500,039549,030464,028272,048513,000356,053718
0000000263,0000261500,037922,032733,027620,056322,000934,046056
0000000264,0000262500,037426,034452,026386,062081,003971,037646
0000000265,0000263500,035338,036400,026521,065242,009159,029308
0000000266,0000264500,033676,037747,026833,065535,015976,021835
0000000267,0000265500,031634,038724,027900,062830,023775,016030
0000000268,0000266500,029692,039102,029470,057574,031743,012349
0000000269,0000267500,028283,038800,031191,050038,039159,011311
0000000270,0000268500,026933,038019,033335,041266,045214,012827
0000000271,0000269500,026641,036577,035081,031782,049402,016960
0000000272,0000270500,026376,034938,036999,022867,051216,023090
0000000273,0000271500,027412,032883,038030,015065,050569,030818
0000000274,0000272500,028165,031063,039108,009436,047440,039208
0000000275,0000273500,030357,029115,038868,006289,042206,047583
0000000276,0000274500,031564,027894,038886,006120,035325,055011
0000000277,0000275500,034384,026704,037252,008811,027513,060843
0000000278,0000276500,035239,026655,036442,014184,019507,064458
0000000279,0000277500,037970,026562,033791,021656,012110,065535
0000000280,0000278500,037766,027820,032728,030527,006033,063951
0000000281,0000279500,039764,028734,029800,039900,001880,059881
0000000282,0000280500,038160,030946,029181,048887,000045,053708
0000000283,0000281500,039102,032378,026792,056566,000717,046066
0000000284,0000282500,036252,034842,027172,062238,003813,037672
0000000285,0000283500,036267,036092,025897,065289,009043,029387
0000000286,0000284500,032750,038024,027484,065482,015876,021988
0000000287,0000285500,032366,038448,027442,062747,023655,016231
0000000288,0000286500,028979,039282,030005,057390,031604,012662
0000000289,0000287500,028897,038544,030831,049928,038948,011633
0000000290,0000288500,026383,038136,033769,041072,044970,013260
0000000291,0000289500,027180,036346,034772,031746,049065,017349
0000000292,0000290500,025973,035020,037321,022780,050854,023552
0000000293,0000291500,027843,032705,037776,015168,050131,031188
0000000294,0000292500,027936,031119,039281,009517,047005,039595
0000000295,0000293500,030598,029025,038717,006541,041739,047850
0000000296,0000294500,031556,027915,038872,006356,034898,055250
0000000297,0000295500,034347,026728,037265,009164,027104,060957
